TIME,Vin,Iin,Vout,Iout 
-2.00E+01,0.2,0.08,-0.4,0.04
-2.00E+01,0.6,-0.08,0,0.12
-2.00E+01,-0.2,0,0,-0.12
-2.00E+01,1,-0.08,0.4,0.12
-2.00E+01,-0.2,-0.08,0,0.04
-2.00E+01,-0.2,0,0,0.04
-2.00E+01,-0.2,-0.16,-0.8,0.04
-2.00E+01,0.6,0.08,-0.4,0.04
-2.00E+01,0.6,-0.16,-0.4,0.04
-2.00E+01,0.6,-0.08,0,0.04
-2.00E+01,0.2,0.16,-0.8,0.12
-2.00E+01,0.2,0.08,0,0.12
-2.00E+01,-0.2,0.08,0,0.12
-1.99E+01,0.2,-0.08,0,0.12
-1.99E+01,0.2,-0.16,0,-0.04
-1.99E+01,0.2,0.16,0.8,0.2
-1.99E+01,0.2,0,0,-0.04
-1.99E+01,0.6,0,0,0.28
-1.99E+01,0.6,-0.08,-0.4,0.12
-1.99E+01,0.2,-0.08,0,0.04
-1.99E+01,-0.6,-0.16,0,0.2
-1.99E+01,0.2,0,-0.4,0.12
-1.99E+01,1,-0.08,0.4,0.04
-1.99E+01,0.6,-0.24,0,0.28
-1.99E+01,-0.2,0,-0.4,0.2
-1.99E+01,0.2,0,-0.4,0.12
-1.99E+01,0.2,-0.08,0,0.04
-1.99E+01,0.6,-0.16,0,-0.04
-1.99E+01,0.6,0.08,0,0.12
-1.99E+01,0.6,0.08,0.4,-0.04
-1.99E+01,0.2,0,0.4,0.12
-1.99E+01,0.2,-0.16,0,0.04
-1.99E+01,0.2,0,0,0.04
-1.99E+01,0.2,0.08,0.8,0.2
-1.99E+01,0.2,0.08,0.4,0.04
-1.99E+01,-0.2,0,-0.8,0.12
-1.99E+01,0.2,0,0.4,0.2
-1.99E+01,0.6,0.08,-0.4,0.04
-1.98E+01,0.6,0.16,0,0.12
-1.98E+01,0.2,0,0.4,0.04
-1.98E+01,0.6,-0.08,-0.4,0.04
-1.98E+01,0.6,0,0,0.12
-1.98E+01,-0.6,-0.08,0.4,0.2
-1.98E+01,0.6,0,-0.4,0.12
-1.98E+01,1,-0.08,0.4,0.04
-1.98E+01,0.2,-0.16,0,0.12
-1.98E+01,0.6,0,0,0.04
-1.98E+01,-0.2,-0.08,0,0.12
-1.98E+01,-0.6,0.08,0,0.12
-1.98E+01,0.6,0,-0.4,0.12
-1.98E+01,0.2,0,0.4,0.2
-1.98E+01,0.2,-0.08,0.8,-0.04
-1.98E+01,0.2,-0.08,0,0.12
-1.98E+01,0.2,0.08,0,0.12
-1.98E+01,0.2,0,-0.4,-0.04
-1.98E+01,0.2,-0.08,-0.4,0.2
-1.98E+01,-0.2,0,-0.8,0.12
-1.98E+01,0.2,-0.08,0,0.12
-1.98E+01,0.2,-0.16,0,-0.2
-1.98E+01,0.2,-0.08,-0.8,0.12
-1.98E+01,0.2,-0.08,-0.4,0.04
-1.98E+01,0.2,0,0,0.04
-1.98E+01,0.6,-0.08,-0.8,0.04
-1.97E+01,0.6,0,0,0.04
-1.97E+01,-0.2,0.08,-0.4,0.2
-1.97E+01,1.4,0.08,0.4,0.04
-1.97E+01,0.2,-0.08,0,0.04
-1.97E+01,-0.2,0.16,0.4,0.2
-1.97E+01,0.6,-0.16,0,-0.04
-1.97E+01,-0.6,0,0.4,0.2
-1.97E+01,0.6,-0.08,0,0.2
-1.97E+01,0.2,0,0,0.04
-1.97E+01,0.6,0,0,0.2
-1.97E+01,0.6,-0.08,0,0.12
-1.97E+01,0.2,0,0.4,0.2
-1.97E+01,1,-0.08,0.8,0.12
-1.97E+01,0.2,0.08,0.4,-0.04
-1.97E+01,1,-0.08,-0.4,0.04
-1.97E+01,0.2,0,0,0.04
-1.97E+01,0.6,0,0.4,0.12
-1.97E+01,-0.2,0,0.4,-0.04
-1.97E+01,0.2,-0.08,-0.4,-0.04
-1.97E+01,0.2,0,0,0.2
-1.97E+01,0.2,-0.08,0.4,-0.04
-1.97E+01,1,-0.08,0,0.12
-1.97E+01,-0.2,0,0.8,0.12
-1.97E+01,0.2,0,0.4,0.04
-1.97E+01,0.2,-0.08,0,0.2
-1.96E+01,0.2,-0.08,0.4,0.12
-1.96E+01,0.6,-0.16,0,0.12
-1.96E+01,0.2,0,-0.4,0.12
-1.96E+01,-0.6,0.08,-0.4,0.12
-1.96E+01,0.6,0,0,0.04
-1.96E+01,-0.2,-0.08,0.4,0.12
-1.96E+01,0.6,-0.08,-0.4,0.04
-1.96E+01,0.2,0.08,0.4,0.2
-1.96E+01,0.6,-0.08,0.4,0.04
-1.96E+01,0.2,-0.08,0,0.12
-1.96E+01,-0.2,0,0,0.12
-1.96E+01,-0.2,0,0.4,0.04
-1.96E+01,0.6,0,-0.4,0.28
-1.96E+01,0.2,0.16,0,0.04
-1.96E+01,0.2,0,-0.4,0.12
-1.96E+01,0.2,0,-0.4,0.2
-1.96E+01,-0.2,0,-0.4,0.04
-1.96E+01,-0.2,0.08,0,0.12
-1.96E+01,0.6,0,0.4,0.04
-1.96E+01,0.6,0,0,0.04
-1.96E+01,0.2,0.08,0,0.04
-1.96E+01,-0.2,0.08,0,0.12
-1.96E+01,0.2,0,0.4,0.28
-1.96E+01,0.2,0.08,0,0.2
-1.96E+01,0.2,0,0,0.2
-1.95E+01,0.2,-0.08,-0.8,0.12
-1.95E+01,-0.2,0,0,0.12
-1.95E+01,0.6,0,0,0.12
-1.95E+01,-0.2,0,0.4,-0.04
-1.95E+01,0.6,-0.08,0,0.04
-1.95E+01,0.2,-0.08,0,0.2
-1.95E+01,0.6,0,-0.4,0.12
-1.95E+01,0.2,0,-0.4,0.04
-1.95E+01,-0.6,0,0.4,0.12
-1.95E+01,0.2,0,0,0.2
-1.95E+01,0.2,0,-0.4,0.04
-1.95E+01,0.2,-0.16,0,0.2
-1.95E+01,0.6,0,-0.4,0.04
-1.95E+01,0.6,0.08,0,0.12
-1.95E+01,0.6,-0.16,0,0.12
-1.95E+01,0.2,-0.08,-0.4,0.12
-1.95E+01,0.2,0,0.4,-0.04
-1.95E+01,-0.6,0,0.4,-0.04
-1.95E+01,0.2,0,0.4,0.04
-1.95E+01,0.2,-0.08,0,0.12
-1.95E+01,-0.2,-0.08,0,0.04
-1.95E+01,0.2,0,0,0.2
-1.95E+01,0.2,0.08,0.4,-0.04
-1.95E+01,0.2,0,-0.4,0.12
-1.95E+01,0.6,0.08,0,0.12
-1.94E+01,-0.2,-0.08,-0.4,0.04
-1.94E+01,0.2,0,0,0.12
-1.94E+01,-0.6,0,0,0.12
-1.94E+01,0.2,-0.08,0.8,0.12
-1.94E+01,0.2,-0.08,0,0.12
-1.94E+01,0.2,-0.08,0.8,0.12
-1.94E+01,0.6,0.08,0,0.04
-1.94E+01,0.6,0,0,0.2
-1.94E+01,-0.2,-0.08,0,0.12
-1.94E+01,-0.2,0,0,0.2
-1.94E+01,0.2,0,0.4,0.04
-1.94E+01,-0.2,0,0.4,-0.04
-1.94E+01,0.2,0,-0.4,0.04
-1.94E+01,-0.2,-0.08,0.8,0.12
-1.94E+01,0.2,0.08,-0.4,0.04
-1.94E+01,0.6,0,-0.4,0.28
-1.94E+01,0.2,0,0,0.28
-1.94E+01,0.6,-0.08,0.4,0.12
-1.94E+01,0.2,0,0.4,0.04
-1.94E+01,0.6,0.08,0.4,0.04
-1.94E+01,-0.2,0.08,0.4,0.04
-1.94E+01,0.6,-0.16,-0.8,0.12
-1.94E+01,-0.2,0.08,0,0.12
-1.94E+01,0.6,0,0.4,0.2
-1.94E+01,0.6,0,0,0.04
-1.93E+01,-0.2,0.08,0,0.2
-1.93E+01,-0.2,-0.08,-0.4,0.2
-1.93E+01,0.2,0.08,-0.4,0.12
-1.93E+01,0.6,0.16,0.4,0.04
-1.93E+01,-0.2,-0.08,-0.4,0.12
-1.93E+01,0.2,-0.08,0,0.12
-1.93E+01,-0.2,-0.08,-0.4,0.04
-1.93E+01,0.2,0,-0.4,0.12
-1.93E+01,1,0.08,0,0.12
-1.93E+01,0.2,-0.08,-0.4,0.2
-1.93E+01,0.2,-0.08,-0.4,0.12
-1.93E+01,0.6,0.08,-0.4,0.04
-1.93E+01,-0.2,-0.08,0.8,0.04
-1.93E+01,0.2,-0.08,0.4,0.12
-1.93E+01,-0.2,0.08,-0.4,0.04
-1.93E+01,0.2,0,-0.4,0.12
-1.93E+01,0.6,0,0.4,0.2
-1.93E+01,-0.2,0,-0.4,0.2
-1.93E+01,0.6,0.08,-0.4,0.12
-1.93E+01,0.6,0.16,0.8,0.04
-1.93E+01,0.2,0.08,-0.4,0.2
-1.93E+01,0.2,0.08,0,-0.12
-1.93E+01,0.6,0,-0.8,0.2
-1.93E+01,0.2,0,0,0.2
-1.93E+01,0.2,-0.08,0.4,0.04
-1.92E+01,0.2,-0.16,-0.4,-0.04
-1.92E+01,0.2,-0.08,0,0.12
-1.92E+01,0.2,-0.08,0,0.12
-1.92E+01,0.2,-0.16,0,0.12
-1.92E+01,1,-0.08,0,0.2
-1.92E+01,0.6,0,0,0.12
-1.92E+01,0.2,0,0,0.04
-1.92E+01,-0.2,0.08,-0.4,0.12
-1.92E+01,0.2,0.08,-0.4,0.2
-1.92E+01,0.2,0,0.4,0.2
-1.92E+01,-0.2,-0.16,0.4,0.12
-1.92E+01,0.2,-0.08,-0.8,0.12
-1.92E+01,1,0,0,0.04
-1.92E+01,0.6,-0.08,0.4,0.04
-1.92E+01,0.2,-0.08,0,0.12
-1.92E+01,0.2,0,0,0.12
-1.92E+01,-0.2,0,-0.4,0.28
-1.92E+01,0.6,0,-0.4,0.12
-1.92E+01,-0.2,-0.08,0,0.2
-1.92E+01,0.2,-0.16,0.4,0.04
-1.92E+01,0.2,0,0.4,0.2
-1.92E+01,0.2,0,0,0.2
-1.92E+01,0.6,-0.08,0.8,0.12
-1.92E+01,-0.2,0.08,-0.4,0.04
-1.92E+01,0.2,-0.08,0,0.12
-1.91E+01,0.2,0.08,0,0.12
-1.91E+01,0.2,0,-0.4,0.12
-1.91E+01,-0.2,-0.08,0,0.12
-1.91E+01,1,-0.08,0.4,0.04
-1.91E+01,0.2,0.08,0,0.04
-1.91E+01,0.2,0,-0.4,0.12
-1.91E+01,-0.2,0.08,0,0.12
-1.91E+01,0.2,0.08,-0.4,0.12
-1.91E+01,0.6,0,0,-0.04
-1.91E+01,0.2,0,-0.4,-0.04
-1.91E+01,0.2,0,0,0.04
-1.91E+01,0.2,0.08,0,0.12
-1.91E+01,-0.2,0,0.4,0.2
-1.91E+01,0.6,0.08,0,0.2
-1.91E+01,-0.2,-0.08,0,0.12
-1.91E+01,0.6,0,-0.4,0.12
-1.91E+01,0.2,0,0.4,0.12
-1.91E+01,0.2,-0.08,-0.4,0.2
-1.91E+01,0.6,0,0.4,0.2
-1.91E+01,0.6,-0.08,-0.4,0.2
-1.91E+01,0.2,0,-0.4,0.12
-1.91E+01,-0.2,0.08,0.4,0.12
-1.91E+01,0.2,0,0,0.12
-1.91E+01,0.6,-0.16,0.4,0.04
-1.91E+01,0.2,-0.08,0.4,0.04
-1.90E+01,0.2,0,0,0.12
-1.90E+01,-0.2,-0.08,-0.4,0.04
-1.90E+01,1,0,-0.4,0.2
-1.90E+01,-0.2,0,0,0.04
-1.90E+01,-0.2,-0.08,0.8,0.12
-1.90E+01,-0.6,0.08,0.4,0.12
-1.90E+01,0.2,-0.08,0,0.2
-1.90E+01,0.6,0,0.4,0.12
-1.90E+01,-0.2,-0.08,0,0.12
-1.90E+01,0.6,-0.16,0,0.12
-1.90E+01,0.2,-0.08,0,0.2
-1.90E+01,-0.2,0,-0.8,-0.04
-1.90E+01,0.6,-0.08,0,0.04
-1.90E+01,0.2,0.08,0,0.2
-1.90E+01,0.6,0,-0.4,0.12
-1.90E+01,0.6,-0.08,0.4,0.04
-1.90E+01,0.6,0.08,0,0.04
-1.90E+01,0.2,0.08,0,0.04
-1.90E+01,0.6,0.08,0,0.12
-1.90E+01,1,-0.08,0,0.12
-1.90E+01,0.2,0.16,0.4,0.12
-1.90E+01,0.6,-0.16,0.4,0.04
-1.90E+01,-0.2,0.08,0,0.04
-1.90E+01,0.2,0.08,-0.4,0.12
-1.90E+01,0.2,0,0,0.2
-1.89E+01,0.2,-0.08,-0.8,0.12
-1.89E+01,-0.2,0,0,0.2
-1.89E+01,0.6,-0.08,0,0.12
-1.89E+01,0.6,0,0.4,0.12
-1.89E+01,0.2,0.08,0,0.04
-1.89E+01,0.2,0.08,-0.4,0.04
-1.89E+01,0.2,-0.08,-0.4,0.2
-1.89E+01,0.2,-0.08,0,0.04
-1.89E+01,0.6,0,0,0.2
-1.89E+01,-0.6,0,0.4,0.12
-1.89E+01,0.2,-0.08,0.4,0.12
-1.89E+01,0.2,-0.08,0.8,0.12
-1.89E+01,0.6,-0.08,-0.4,0.04
-1.89E+01,-0.2,0.08,0.4,-0.04
-1.89E+01,0.6,0,0,0.04
-1.89E+01,0.2,-0.08,0,0.12
-1.89E+01,0.2,0,0.8,0.2
-1.89E+01,0.2,0,-0.8,0.12
-1.89E+01,0.6,0,0,0.04
-1.89E+01,0.2,-0.08,0.4,0.12
-1.89E+01,0.2,0,0,0.04
-1.89E+01,0.2,-0.08,0.4,0.12
-1.89E+01,0.2,0,-0.4,0.2
-1.89E+01,0.6,0,0.4,0.28
-1.89E+01,0.2,0,0,0.04
-1.88E+01,0.2,-0.16,-0.4,0.04
-1.88E+01,0.2,-0.08,0,0.12
-1.88E+01,0.6,-0.08,0.4,0.2
-1.88E+01,0.2,-0.08,-0.8,0.12
-1.88E+01,-0.2,-0.08,0,0.04
-1.88E+01,-0.2,0,0,0.2
-1.88E+01,-0.2,-0.08,0.4,0.04
-1.88E+01,0.2,-0.08,0,0.04
-1.88E+01,0.2,0,0,0.12
-1.88E+01,0.6,0,0.8,0.12
-1.88E+01,0.6,-0.08,0,0.12
-1.88E+01,-0.2,-0.08,0,-0.12
-1.88E+01,-0.2,-0.08,-0.4,0.2
-1.88E+01,0.2,0,0,0.12
-1.88E+01,0.6,-0.08,0,0.12
-1.88E+01,0.2,-0.08,-0.4,0.04
-1.88E+01,0.2,-0.16,-0.8,0.04
-1.88E+01,1,-0.16,0,0.04
-1.88E+01,0.2,0.08,0,0.04
-1.88E+01,-0.6,0.08,0,0.12
-1.88E+01,0.2,0,0,0.2
-1.88E+01,-0.2,0.08,0.4,0.12
-1.88E+01,-0.2,0.08,0,0.12
-1.88E+01,0.6,-0.08,0,0.12
-1.88E+01,-0.2,-0.08,0.4,-0.04
-1.87E+01,0.2,0.08,0,0.2
-1.87E+01,0.2,0,-0.4,0.04
-1.87E+01,0.6,0,0,0.04
-1.87E+01,0.2,-0.08,0.4,0.28
-1.87E+01,0.2,0,-0.4,-0.04
-1.87E+01,0.6,-0.08,0.4,0.12
-1.87E+01,0.6,0,-0.8,0.04
-1.87E+01,0.6,-0.08,0,0.2
-1.87E+01,-0.2,0.08,0,-0.04
-1.87E+01,0.2,0,0.4,0.12
-1.87E+01,0.2,-0.08,0,0.12
-1.87E+01,0.2,0.08,0,0.04
-1.87E+01,0.2,-0.24,0,0.2
-1.87E+01,1,0.08,-0.4,-0.04
-1.87E+01,-0.2,-0.08,0,0.12
-1.87E+01,0.2,0,0.4,0.12
-1.87E+01,-0.2,0.08,-0.4,0.04
-1.87E+01,0.6,0,-0.4,0.12
-1.87E+01,0.2,0.08,-0.4,0.04
-1.87E+01,0.2,0.08,-0.4,0.04
-1.87E+01,0.2,0,-0.4,0.12
-1.87E+01,0.6,0.08,0,0.2
-1.87E+01,0.6,0.08,0.4,0.04
-1.87E+01,0.2,-0.08,0,0.12
-1.87E+01,0.2,0.08,0,0.04
-1.86E+01,-0.2,-0.08,-0.4,0.12
-1.86E+01,0.2,0,0,0.12
-1.86E+01,-0.6,-0.08,0,0.04
-1.86E+01,0.2,0,0.4,0.04
-1.86E+01,0.2,0,0,0.2
-1.86E+01,0.6,0,-0.4,-0.04
-1.86E+01,0.2,-0.08,-0.4,0.04
-1.86E+01,-0.2,-0.08,0,-0.04
-1.86E+01,0.2,0,-0.4,0.12
-1.86E+01,0.2,-0.08,0.8,0.12
-1.86E+01,0.2,0.08,-0.4,0.04
-1.86E+01,0.2,0,0,0.12
-1.86E+01,0.2,-0.16,-0.4,0.04
-1.86E+01,1,-0.08,0.4,0.04
-1.86E+01,0.6,0,0,0.04
-1.86E+01,0.2,0.08,0.4,0.12
-1.86E+01,0.2,0.08,0,0.04
-1.86E+01,0.2,0,-0.4,0.12
-1.86E+01,0.2,0,-0.4,-0.04
-1.86E+01,0.2,-0.08,0,0.04
-1.86E+01,-0.2,-0.08,0,0.2
-1.86E+01,0.6,0.08,0.4,-0.04
-1.86E+01,0.2,-0.08,0,0.28
-1.86E+01,-0.2,0.08,0,0.2
-1.86E+01,0.2,-0.16,0.4,0.04
-1.85E+01,0.2,0,-0.4,0.04
-1.85E+01,0.6,-0.08,0,0.2
-1.85E+01,0.6,-0.08,0,0.12
-1.85E+01,0.2,0,0,0.2
-1.85E+01,0.6,0,0,0.12
-1.85E+01,-0.2,0,0,0.2
-1.85E+01,0.2,-0.08,-0.4,0.04
-1.85E+01,0.2,-0.08,-0.4,0.12
-1.85E+01,0.2,-0.08,-0.4,0.12
-1.85E+01,0.2,0.16,-0.8,0.2
-1.85E+01,-0.2,0.08,0,0.12
-1.85E+01,-0.2,0.08,0.4,0.12
-1.85E+01,0.2,0,0,0.12
-1.85E+01,1,-0.16,0,0.04
-1.85E+01,0.6,0,-0.4,0.2
-1.85E+01,0.2,0.08,0,0.12
-1.85E+01,0.6,-0.08,0,0.12
-1.85E+01,-0.2,-0.08,-0.4,0.12
-1.85E+01,1,0,0.8,0.12
-1.85E+01,0.2,0,0,0.04
-1.85E+01,0.2,-0.08,-0.4,0.2
-1.85E+01,0.2,-0.08,0,0.12
-1.85E+01,0.6,-0.08,0.4,0.12
-1.85E+01,0.2,0,0,0.04
-1.85E+01,-0.6,0.08,0,0.04
-1.84E+01,0.2,0.08,-0.4,0.2
-1.84E+01,0.2,-0.08,0,0.12
-1.84E+01,0.2,0,-0.4,0.2
-1.84E+01,0.6,0,0,0.04
-1.84E+01,0.2,-0.08,0,0.12
-1.84E+01,0.6,0,0,0.12
-1.84E+01,-1,0.08,0,0.04
-1.84E+01,-0.2,0.08,0,0.12
-1.84E+01,0.2,0,0,0.12
-1.84E+01,0.2,0,0,0.28
-1.84E+01,1,-0.08,0,0.04
-1.84E+01,0.2,-0.16,-0.4,0.04
-1.84E+01,0.2,0.08,-0.4,0.28
-1.84E+01,-0.2,0,0.4,0.28
-1.84E+01,0.2,-0.08,0.8,0.2
-1.84E+01,0.2,0,1.2,0.04
-1.84E+01,0.2,-0.08,0,0.2
-1.84E+01,-0.2,0.08,-0.4,-0.04
-1.84E+01,-0.2,0,0.4,0.04
-1.84E+01,-0.2,-0.08,0.4,-0.04
-1.84E+01,0.2,-0.08,0,0.12
-1.84E+01,0.2,0,0.4,-0.04
-1.84E+01,0.6,0.08,-0.4,0.12
-1.84E+01,-0.2,0,0,0.2
-1.84E+01,0.2,0.08,0,0.04
-1.83E+01,0.6,0,0.4,0.12
-1.83E+01,0.2,-0.08,0,0.12
-1.83E+01,-0.6,0.16,0,0.12
-1.83E+01,0.2,0,0.4,0.12
-1.83E+01,0.6,0,0,0.04
-1.83E+01,0.2,-0.08,0,0.12
-1.83E+01,0.2,-0.16,-0.4,0.12
-1.83E+01,0.6,0,-0.4,0.12
-1.83E+01,0.2,0,-0.4,0.12
-1.83E+01,0.2,0,-0.8,0.04
-1.83E+01,0.2,0,0.4,0.12
-1.83E+01,0.2,0,0,0.12
-1.83E+01,0.6,0,-0.4,-0.12
-1.83E+01,-0.2,-0.08,0,0.12
-1.83E+01,1,0,0,0.04
-1.83E+01,-0.2,-0.08,0.4,0.12
-1.83E+01,-0.6,-0.08,0,0.2
-1.83E+01,0.6,-0.08,0,0.12
-1.83E+01,0.6,0,0,0.04
-1.83E+01,-0.6,-0.16,0.8,0.2
-1.83E+01,-0.2,0.08,0,0.04
-1.83E+01,0.2,0,-0.4,0.04
-1.83E+01,-0.2,-0.08,-0.4,0.2
-1.83E+01,0.6,-0.08,-0.4,0.12
-1.83E+01,0.6,0.08,0,0.12
-1.82E+01,-0.2,0.08,0.8,0.2
-1.82E+01,0.6,0.08,0,0.12
-1.82E+01,0.2,-0.08,0,0.12
-1.82E+01,0.6,0,0.4,0.12
-1.82E+01,-0.2,0,0,0.12
-1.82E+01,-0.2,-0.08,-0.4,0.12
-1.82E+01,-0.2,0.08,0,0.12
-1.82E+01,0.2,0,0,0.12
-1.82E+01,-0.2,-0.08,0,0.04
-1.82E+01,1,-0.08,0,0.04
-1.82E+01,0.2,0.16,-0.4,0.2
-1.82E+01,-0.2,0,0,-0.04
-1.82E+01,0.6,-0.08,0.4,0.12
-1.82E+01,-0.2,-0.08,0,0.12
-1.82E+01,0.2,-0.08,-0.8,0.2
-1.82E+01,0.2,0,0,0.04
-1.82E+01,-0.2,0.08,0,0.12
-1.82E+01,0.2,0,0,0.2
-1.82E+01,0.6,-0.08,0,0.12
-1.82E+01,1,0.08,0,0.2
-1.82E+01,0.2,-0.08,0,0.28
-1.82E+01,0.6,0,-0.4,0.12
-1.82E+01,0.2,0,-0.4,0.2
-1.82E+01,0.6,-0.08,-0.4,0.2
-1.82E+01,-0.2,0.08,0.4,0.2
-1.81E+01,0.2,0.08,0,0.2
-1.81E+01,-0.6,0,0,0.04
-1.81E+01,-0.2,-0.08,0.4,0.2
-1.81E+01,0.2,-0.08,0.4,-0.04
-1.81E+01,0.2,-0.08,0.4,-0.04
-1.81E+01,0.2,-0.08,0.4,0.04
-1.81E+01,0.2,-0.08,0,0.12
-1.81E+01,-0.2,-0.08,0,0.12
-1.81E+01,-0.2,-0.08,0,-0.04
-1.81E+01,0.6,-0.08,0,0.28
-1.81E+01,0.6,-0.08,0,0.12
-1.81E+01,-0.2,0,0.4,0.12
-1.81E+01,0.2,-0.08,-0.4,0.12
-1.81E+01,0.6,-0.08,0.4,-0.04
-1.81E+01,0.2,0,0.4,0.2
-1.81E+01,0.2,-0.16,-0.4,-0.04
-1.81E+01,-0.2,-0.16,0.4,0.2
-1.81E+01,0.6,0,0,0.12
-1.81E+01,-0.6,0,0.4,0.12
-1.81E+01,0.2,0.08,0.4,-0.04
-1.81E+01,0.2,-0.08,0,0.2
-1.81E+01,0.2,0.08,-0.4,0.12
-1.81E+01,0.2,-0.08,0,0.04
-1.81E+01,-0.2,0,0.4,0.12
-1.81E+01,0.2,-0.08,0,0.12
-1.80E+01,0.2,0,-0.4,0.12
-1.80E+01,0.2,0,-0.4,0.04
-1.80E+01,1,0,-0.4,0.12
-1.80E+01,0.6,-0.08,0,0.04
-1.80E+01,-0.2,-0.08,0,0.12
-1.80E+01,0.2,-0.08,-0.4,0.2
-1.80E+01,0.6,-0.08,0,0.04
-1.80E+01,0.2,0,0,0.12
-1.80E+01,-0.6,0,0,0.2
-1.80E+01,-0.2,-0.16,0.4,0.04
-1.80E+01,-0.6,0,0,-0.04
-1.80E+01,0.2,0,0,0.12
-1.80E+01,0.2,0.08,0,0.04
-1.80E+01,-0.2,-0.08,0,0.12
-1.80E+01,0.2,0,0.4,0.12
-1.80E+01,-0.2,0,0.4,0.2
-1.80E+01,0.2,0,0.4,0.04
-1.80E+01,-0.2,0,0,0.2
-1.80E+01,0.2,-0.08,-0.4,0.12
-1.80E+01,0.2,0,-0.4,0.04
-1.80E+01,0.6,0,0,0.2
-1.80E+01,0.6,-0.16,0,0.12
-1.80E+01,0.6,-0.08,0.4,0.04
-1.80E+01,-0.6,0,-0.4,0.04
-1.80E+01,0.2,-0.08,-0.4,0.2
-1.79E+01,0.2,0.08,-0.4,0.12
-1.79E+01,0.2,-0.16,-0.4,0.04
-1.79E+01,0.2,-0.08,0,0.12
-1.79E+01,0.6,0,0,0.2
-1.79E+01,0.6,0,-0.4,0.2
-1.79E+01,-0.2,0.16,0,0.12
-1.79E+01,0.2,-0.08,-0.4,0.12
-1.79E+01,0.2,-0.08,-0.4,0.12
-1.79E+01,0.6,-0.08,-0.4,0.12
-1.79E+01,0.2,-0.08,0.4,0.12
-1.79E+01,0.2,0.08,0,0.28
-1.79E+01,0.6,-0.08,-0.4,0.12
-1.79E+01,0.6,0,0,0.28
-1.79E+01,-0.6,-0.08,-0.4,0.2
-1.79E+01,1.4,-0.24,0,0.04
-1.79E+01,0.2,-0.08,-0.4,0.36
-1.79E+01,0.6,-0.08,0,-0.12
-1.79E+01,0.2,-0.08,0.4,0.2
-1.79E+01,-0.2,0,0,0.04
-1.79E+01,-0.2,0.08,-0.4,0.2
-1.79E+01,0.2,0,-0.4,0.12
-1.79E+01,1,0,-0.4,0.04
-1.79E+01,0.2,-0.08,-0.4,0.12
-1.79E+01,0.6,-0.08,-0.4,0.2
-1.79E+01,-0.2,0,0,0.04
-1.78E+01,0.2,-0.08,-0.4,0.12
-1.78E+01,0.6,-0.08,-0.4,0.12
-1.78E+01,0.6,0,0.4,0.12
-1.78E+01,-0.2,-0.08,0,-0.04
-1.78E+01,0.6,0.08,0.4,0.04
-1.78E+01,0.6,0,-0.4,0.12
-1.78E+01,-0.2,-0.08,-0.4,0.28
-1.78E+01,-0.2,0,0,0.12
-1.78E+01,-0.6,0.08,-0.4,0.2
-1.78E+01,1,0.08,0.8,0.12
-1.78E+01,0.2,0,0.4,0.12
-1.78E+01,0.2,-0.16,0,0.2
-1.78E+01,0.2,0,-0.4,0.12
-1.78E+01,0.6,-0.08,-0.8,0.12
-1.78E+01,0.6,0,0,0.2
-1.78E+01,1,0,0.4,0.04
-1.78E+01,0.6,0,0,0.04
-1.78E+01,0.2,-0.08,0,0.12
-1.78E+01,-0.2,0.08,0.4,0.2
-1.78E+01,-0.2,-0.08,-0.4,0.12
-1.78E+01,0.2,0,0,-0.04
-1.78E+01,0.6,0,0,0.12
-1.78E+01,0.2,-0.08,0,0.12
-1.78E+01,0.2,0,0,0.2
-1.78E+01,-0.2,0,-0.4,0.12
-1.77E+01,0.6,-0.08,0,0.04
-1.77E+01,0.2,-0.08,0,0.04
-1.77E+01,-0.2,0,-0.4,0.2
-1.77E+01,0.2,-0.08,-0.8,0.12
-1.77E+01,-0.2,0,0,0.2
-1.77E+01,0.2,0,0.4,0.12
-1.77E+01,0.6,0,-0.4,0.12
-1.77E+01,0.2,0.16,0,0.12
-1.77E+01,0.2,0.08,-0.4,0.12
-1.77E+01,0.2,-0.08,0,-0.04
-1.77E+01,0.2,0,-0.4,0.12
-1.77E+01,-0.2,-0.08,0,0.12
-1.77E+01,0.6,0.08,-0.4,0.04
-1.77E+01,0.6,0,0,0.2
-1.77E+01,0.2,0.08,0,0.2
-1.77E+01,-0.2,0,0,0.12
-1.77E+01,-0.2,-0.08,0,0.12
-1.77E+01,-0.2,0,0.4,0.04
-1.77E+01,0.2,-0.08,0,0.2
-1.77E+01,-0.2,0.08,0,0.12
-1.77E+01,0.2,0.08,0,0.04
-1.77E+01,0.2,0,0.4,0.2
-1.77E+01,-0.2,-0.08,0,0.04
-1.77E+01,0.2,-0.08,0,0.2
-1.77E+01,0.2,0.08,0,0.04
-1.76E+01,0.6,-0.16,-0.4,0.04
-1.76E+01,-0.2,0.08,0,0.12
-1.76E+01,-0.6,0,-0.4,0.12
-1.76E+01,0.2,-0.08,-0.4,0.2
-1.76E+01,0.2,-0.08,0,0.04
-1.76E+01,0.2,-0.16,-0.8,0.04
-1.76E+01,-0.2,-0.08,-0.4,0.04
-1.76E+01,0.2,-0.08,0,0.12
-1.76E+01,0.6,0,0,0.04
-1.76E+01,-0.2,-0.16,-0.4,0.04
-1.76E+01,0.6,-0.08,-0.4,0.12
-1.76E+01,0.2,0,0,0.12
-1.76E+01,-0.6,-0.08,-0.4,0.12
-1.76E+01,0.6,-0.08,0,0.04
-1.76E+01,-0.6,0,0.8,0.28
-1.76E+01,0.2,-0.08,0,0.04
-1.76E+01,0.6,-0.08,0,0.12
-1.76E+01,-0.6,0,0.4,0.04
-1.76E+01,0.2,0,0.4,0.12
-1.76E+01,0.6,0,0.8,-0.04
-1.76E+01,0.2,0.08,-0.4,0.12
-1.76E+01,-0.2,0,0.4,0.12
-1.76E+01,0.6,0,0,0.12
-1.76E+01,0.6,0.16,0,0.2
-1.76E+01,-0.2,0,0,0.2
-1.75E+01,0.6,0.16,0.4,0.2
-1.75E+01,-0.6,-0.08,-0.4,0.2
-1.75E+01,-0.2,0,-0.4,0.04
-1.75E+01,0.6,0,0,0.2
-1.75E+01,0.6,0,0.4,0.12
-1.75E+01,-0.2,-0.08,0.8,0.2
-1.75E+01,0.6,-0.08,0,-0.04
-1.75E+01,1,-0.08,0,0.2
-1.75E+01,0.2,0.08,-1.2,0.12
-1.75E+01,-0.2,0.08,-0.4,0.04
-1.75E+01,0.2,-0.08,0,0.12
-1.75E+01,0.2,0,0,0.2
-1.75E+01,0.2,0,0.4,0.2
-1.75E+01,-0.2,0,-0.4,0.2
-1.75E+01,0.6,-0.08,0,0.04
-1.75E+01,0.6,-0.16,0,0.12
-1.75E+01,0.6,0,0.4,0.12
-1.75E+01,-0.2,0,0,0.2
-1.75E+01,0.2,0,0,0.12
-1.75E+01,0.6,0,0.4,0.12
-1.75E+01,0.2,0,-0.4,0.12
-1.75E+01,0.2,-0.08,0,0.12
-1.75E+01,0.2,0,0.4,0.28
-1.75E+01,0.2,-0.08,-0.4,0.12
-1.75E+01,1,-0.08,0,0.04
-1.74E+01,-0.2,-0.08,0.4,0.12
-1.74E+01,0.2,0,0.4,0.12
-1.74E+01,-0.6,0.16,0,0.12
-1.74E+01,0.2,-0.08,-0.8,0.28
-1.74E+01,0.6,0,0,0.2
-1.74E+01,-0.6,0,0,0.12
-1.74E+01,0.2,0,0.4,0.04
-1.74E+01,-0.2,0.08,-0.8,0.12
-1.74E+01,0.2,-0.16,0,0.12
-1.74E+01,-0.2,-0.24,0,0.2
-1.74E+01,0.2,-0.08,0.4,-0.04
-1.74E+01,0.2,-0.08,0.4,0.12
-1.74E+01,-0.2,0.08,0,0.28
-1.74E+01,0.6,-0.08,0.4,0.12
-1.74E+01,0.6,-0.16,0,0.2
-1.74E+01,-0.2,0.08,0,0.12
-1.74E+01,-0.2,0,0,0.2
-1.74E+01,-0.2,0.08,-0.8,0.12
-1.74E+01,0.2,0,0.4,0.12
-1.74E+01,0.6,0,0,0.2
-1.74E+01,0.6,0,0,0.2
-1.74E+01,0.2,0.16,0.4,0.12
-1.74E+01,0.2,0.08,0,0.04
-1.74E+01,0.6,0,0,0.12
-1.74E+01,0.2,0.08,0,0.12
-1.73E+01,0.2,0,0.4,0.12
-1.73E+01,0.2,-0.08,-0.4,0.28
-1.73E+01,0.2,0.08,-0.4,0.12
-1.73E+01,-0.2,-0.08,-0.4,0.12
-1.73E+01,0.2,-0.08,0,0.12
-1.73E+01,0.2,0.08,0.4,0.04
-1.73E+01,-0.2,-0.08,0,0.12
-1.73E+01,0.2,0,0,0.12
-1.73E+01,0.2,-0.08,0.4,0.2
-1.73E+01,0.6,-0.08,0,0.2
-1.73E+01,-0.2,-0.08,0,0.04
-1.73E+01,0.2,-0.08,0.4,0.12
-1.73E+01,0.6,0.08,-0.4,0.2
-1.73E+01,-0.2,0,0.4,0.2
-1.73E+01,0.2,-0.08,0,0.2
-1.73E+01,0.6,0,-0.4,0.04
-1.73E+01,0.2,0,-0.4,0.12
-1.73E+01,0.2,-0.08,0,0.2
-1.73E+01,0.6,0,0.4,0.12
-1.73E+01,0.2,0,-0.4,0.2
-1.73E+01,0.2,0,-0.4,0.12
-1.73E+01,0.2,0,0,0.2
-1.73E+01,0.2,0.08,0.4,0.12
-1.73E+01,0.6,0,-0.4,0.12
-1.73E+01,-0.2,-0.08,0,0.12
-1.72E+01,0.2,0,-0.8,0.04
-1.72E+01,0.6,-0.08,0,0.12
-1.72E+01,-0.2,-0.16,-0.4,0.04
-1.72E+01,0.2,0,0,0.2
-1.72E+01,0.6,0,-0.4,0.12
-1.72E+01,-0.2,0,0,0.28
-1.72E+01,0.2,-0.08,-0.4,-0.04
-1.72E+01,0.6,0,0,0.12
-1.72E+01,0.6,0,0,0.04
-1.72E+01,-0.2,-0.08,-0.4,0.12
-1.72E+01,-0.2,-0.08,0,0.12
-1.72E+01,0.2,0.08,-0.4,0.04
-1.72E+01,0.2,0,0.4,0.04
-1.72E+01,0.2,0.08,-0.4,-0.04
-1.72E+01,0.2,-0.08,0,0.04
-1.72E+01,0.2,0.08,0,0.04
-1.72E+01,-0.2,0,0,0.12
-1.72E+01,0.2,0,0,0.12
-1.72E+01,-0.6,0.08,0,0.04
-1.72E+01,0.2,0.08,-0.4,0.04
-1.72E+01,-0.2,-0.08,-0.4,0.12
-1.72E+01,0.2,0,-0.4,0.12
-1.72E+01,-0.2,-0.16,-0.4,0.12
-1.72E+01,-0.6,0,0.4,0.12
-1.72E+01,0.2,-0.08,-0.4,0.36
-1.71E+01,-0.6,-0.08,-0.4,0.04
-1.71E+01,0.6,0,0.4,0.12
-1.71E+01,0.2,-0.08,0,0.2
-1.71E+01,0.2,0,0.4,0.2
-1.71E+01,0.2,0,0,0.12
-1.71E+01,0.6,0,0,0.12
-1.71E+01,-0.2,0,0,0.12
-1.71E+01,0.6,0.08,-0.4,0.04
-1.71E+01,0.2,-0.08,-0.4,0.28
-1.71E+01,-0.2,0.08,-0.4,0.04
-1.71E+01,0.2,-0.08,-0.4,0.28
-1.71E+01,0.2,-0.08,0,0.04
-1.71E+01,1,-0.08,0.4,0.12
-1.71E+01,0.2,0,0,0.04
-1.71E+01,-0.2,-0.08,0.4,0.12
-1.71E+01,0.2,0,0,0.2
-1.71E+01,-1,-0.08,0,0.12
-1.71E+01,0.2,-0.08,0,-0.04
-1.71E+01,-0.2,0,0,-0.04
-1.71E+01,-0.2,0,-0.4,0.04
-1.71E+01,-0.2,0,0.4,0.2
-1.71E+01,0.6,0.08,0,0.2
-1.71E+01,0.2,-0.08,-0.4,0.04
-1.71E+01,0.6,0.08,0,0.04
-1.71E+01,0.2,0,0.4,0.12
-1.70E+01,3,7.44,-0.4,0.12
-1.70E+01,21,8.48,4,1.48
-1.70E+01,37.4,8,9.2,3.08
-1.70E+01,43.8,1.68,11.2,3.8
-1.70E+01,44.2,1.28,11.6,3.8
-1.70E+01,43.4,1.2,11.2,3.88
-1.70E+01,44.2,1.04,12,3.72
-1.70E+01,44.2,1.12,11.2,4.04
-1.70E+01,44.2,1.12,11.2,3.96
-1.70E+01,44.6,1.04,11.6,3.96
